[2025-May-27 16:19:38] [debug] --------------------------------------------------------------------------------
[2025-May-27 16:19:38] [debug] nrfjprog --qspieraseall --log 
[2025-May-27 16:19:38] [debug] nrfjprog version 10.24.2 external
[2025-May-27 16:19:38] [debug] --------------------------------------------------------------------------------
[2025-May-27 16:19:38] [ info] Load library at /opt/nrf-command-line-tools/lib/libnrfjprogdll.so.
[2025-May-27 16:19:38] [ info] Library loaded, loading member functions.
[2025-May-27 16:19:38] [ info] Member functions succesfully loaded.
[2025-May-27 16:19:38] [debug] [ Client] - open
[2025-May-27 16:19:38] [debug] [ Client] - start
[2025-May-27 16:19:38] [ info] [ Client] - stdout: Jlinkarm nRF Worker ready. Handling sequence f40ff3ef-335a-4196-aba8-7609ccad5ca9.
[2025-May-27 16:19:38] [debug] [SeggerBackend] - Logger sink registered in Segger backend logger
[2025-May-27 16:19:38] [debug] [  JLink] - Logger sink registered in JLink logger
[2025-May-27 16:19:38] [debug] [  nRFXX] - open
[2025-May-27 16:19:38] [debug] [  nRFXX] - just_check_family
[2025-May-27 16:19:38] [debug] [SeggerBackend] - open_dll
[2025-May-27 16:19:38] [debug] [SeggerBackend] - No J-Link DLL path was provided. Attempting to auto detect.
[2025-May-27 16:19:38] [trace] [ Client] - Command open executed for 5 milliseconds with result 0
[2025-May-27 16:19:38] [debug] [ Client] - config
[2025-May-27 16:19:38] [trace] [ Client] - Command config executed for 1 milliseconds with result 0
[2025-May-27 16:19:38] [debug] [ Client] - enum_emu_snr
[2025-May-27 16:19:38] [ info] [SeggerBackend] - Load library at /opt/SEGGER/JLink/libjlinkarm.so.7.94.5.
[2025-May-27 16:19:38] [ info] [SeggerBackend] - Library loaded, loading member functions.
[2025-May-27 16:19:38] [ info] [SeggerBackend] - Member functions succesfully loaded.
[2025-May-27 16:19:38] [debug] [SeggerBackend] - Set batch mode
[2025-May-27 16:19:38] [debug] [SeggerBackend] - dll_version
[2025-May-27 16:19:38] [ info] [SeggerBackend] - Segger dll version 7.94.e loaded.
[2025-May-27 16:19:38] [trace] [ Worker] - Command open executed for 4 milliseconds with result 0
[2025-May-27 16:19:38] [debug] [  nRFXX] - config
[2025-May-27 16:19:38] [debug] [SeggerBackend] - enum_emu_snr
[2025-May-27 16:19:38] [trace] [ Worker] - Command config executed for 1 milliseconds with result 0
[2025-May-27 16:19:38] [debug] [  nRFXX] - enum_emu_con_info
[2025-May-27 16:19:38] [debug] [SeggerBackend] - is_connected_to_emu
[2025-May-27 16:19:38] [debug] [SeggerBackend] - enum_emu_con_info
[2025-May-27 16:19:38] [trace] [ Client] - Command enum_emu_con_info executed for 33 milliseconds with result 0
[2025-May-27 16:19:38] [debug] [ Client] - connect_to_emu_with_snr
[2025-May-27 16:19:38] [debug] [SeggerBackend] - is_connected_to_emu
[2025-May-27 16:19:38] [trace] [ Worker] - Command enum_emu_con_info executed for 33 milliseconds with result 0
[2025-May-27 16:19:38] [debug] [  nRFXX] - connect_to_emu_with_snr
[2025-May-27 16:19:38] [debug] [SeggerBackend] - is_connected_to_emu
[2025-May-27 16:19:38] [debug] [SeggerBackend] - connect_to_emu_with_snr
[2025-May-27 16:19:38] [debug] [SeggerBackend] - is_connected_to_emu
[2025-May-27 16:19:38] [debug] [SeggerBackend] - ---just_enum_emu_snr
[2025-May-27 16:19:38] [debug] [SeggerBackend] - ---just_get_num_emus
[2025-May-27 16:19:38] [debug] [SeggerBackend] - ---just_connect_to_emu_with_snr
[2025-May-27 16:19:38] [debug] [SeggerBackend] - ---just_connect_to_emu_without_snr
[2025-May-27 16:19:38] [debug] [SeggerBackend] - Segger logging enabled.
[2025-May-27 16:19:38] [trace] [  JLink] - Firmware: J-Link OB-nRF5340-NordicSemi compiled Oct 30 2023 12:13:06
[2025-May-27 16:19:38] [trace] [  JLink] - Firmware: J-Link OB-nRF5340-NordicSemi compiled Oct 30 2023 12:13:06
[2025-May-27 16:19:38] [trace] [  JLink] - Hardware: V1.00
[2025-May-27 16:19:38] [trace] [  JLink] - S/N: 1050016274
[2025-May-27 16:19:38] [trace] [  JLink] - OEM: SEGGER
[2025-May-27 16:19:38] [trace] [  JLink] - Feature(s): RDI, FlashBP, FlashDL, JFlash, GDB
[2025-May-27 16:19:38] [trace] [  JLink] - Bootloader: 2021 May 18
[2025-May-27 16:19:38] [trace] [  JLink] - USB speed mode: Full speed (12 MBit/s)
[2025-May-27 16:19:38] [trace] [  JLink] - TELNET listener socket opened on port 19021
[2025-May-27 16:19:38] [trace] [  JLink] - WEBSRV WEBSRV_Init(): Starting webserver thread(s)
[2025-May-27 16:19:38] [trace] [  JLink] - WEBSRV Webserver running on local port 19080
[2025-May-27 16:19:38] [trace] [  JLink] - Looking for J-Link GUI Server exe at: /opt/SEGGER/JLink/JLinkGUIServerExe 
[2025-May-27 16:19:38] [trace] [  JLink] - Forking J-Link GUI Server: /opt/SEGGER/JLink/JLinkGUIServerExe 
[2025-May-27 16:19:38] [trace] [  JLink] - Failed to connect to J-Link GUI Server. 
[2025-May-27 16:19:38] [trace] [  JLink] - - 326.564ms returns "O.K."  
[2025-May-27 16:19:38] [trace] [  JLink] - JLINK_HasError()  
[2025-May-27 16:19:38] [trace] [  JLink] - JLINK_Lock()  
[2025-May-27 16:19:38] [trace] [  JLink] - JLINK_ExecCommand("SetRestartOnClose = 0", ...).   
[2025-May-27 16:19:38] [trace] [  JLink] - - 0.004ms returns 0x01  
[2025-May-27 16:19:38] [trace] [  JLink] - JLINK_HasError()  
[2025-May-27 16:19:38] [trace] [  JLink] - JLINK_ExecCommand("DisableFlashDL", ...).   
[2025-May-27 16:19:38] [trace] [  JLink] - - 0.002ms returns 0x00  
[2025-May-27 16:19:38] [trace] [  JLink] - JLINK_HasError()  
[2025-May-27 16:19:38] [trace] [  JLink] - JLINK_ExecCommand("ExcludeFlashCacheRange 0x0-0xFFFFFFFF", ...).   
[2025-May-27 16:19:38] [trace] [  JLink] - - 0.001ms returns 0x00  
[2025-May-27 16:19:38] [trace] [  JLink] - JLINK_HasError()  
[2025-May-27 16:19:38] [trace] [  JLink] - JLINK_SetHookUnsecureDialog  
[2025-May-27 16:19:38] [trace] [  JLink] - JLINK_SetHookUnsecureDialog(...)
[2025-May-27 16:19:38] [trace] [  JLink] - - 0.007ms returns 0  
[2025-May-27 16:19:38] [trace] [  JLink] - JLINK_HasError()  
[2025-May-27 16:19:38] [trace] [  JLink] - JLINK_TIF_Select(JLINKARM_TIF_SWD)  
[2025-May-27 16:19:38] [trace] [  JLink] - - 4.495ms returns 0x00  
[2025-May-27 16:19:38] [trace] [  JLink] - JLINK_HasError()  
[2025-May-27 16:19:38] [trace] [  JLink] - JLINK_GetSpeedInfo()  
[2025-May-27 16:19:38] [trace] [  JLink] - 128000000 Hz / n, n >= 64
[2025-May-27 16:19:38] [trace] [  JLink] - - 0.005ms  
[2025-May-27 16:19:38] [trace] [  JLink] - JLINK_HasError()  
[2025-May-27 16:19:38] [debug] [SeggerBackend] - Connected emulator supports SWD speeds up to 2000kHz
[2025-May-27 16:19:38] [trace] [  JLink] - JLINK_SetSpeed(2000)  
[2025-May-27 16:19:38] [trace] [  JLink] - - 0.562ms  
[2025-May-27 16:19:38] [trace] [  JLink] - JLINK_HasError()  
[2025-May-27 16:19:38] [trace] [  JLink] - JLINK_GetSpeed()  
[2025-May-27 16:19:38] [trace] [  JLink] - - 0.002ms returns 2000  
[2025-May-27 16:19:38] [trace] [  JLink] - JLINK_HasError()  
[2025-May-27 16:19:38] [debug] [SeggerBackend] - SWD clock set to 2000kHz
[2025-May-27 16:19:38] [trace] [  JLink] - JLINK_GetSN()  
[2025-May-27 16:19:38] [trace] [  JLink] - - 0.002ms returns 1050016274  
[2025-May-27 16:19:38] [trace] [  JLink] - JLINK_HasError()  
[2025-May-27 16:19:38] [trace] [  JLink] - - 0.003ms  
[2025-May-27 16:19:38] [debug] [  nRFXX] - read_device_family
[2025-May-27 16:19:38] [debug] [  nRFXX] - read_device_family
[2025-May-27 16:19:38] [debug] [SeggerBackend] - is_connected_to_emu
[2025-May-27 16:19:38] [trace] [  JLink] - JLINK_IsOpen()  
[2025-May-27 16:19:38] [trace] [  JLink] - - 0.002ms returns 0x01  
[2025-May-27 16:19:38] [trace] [  JLink] - JLINK_HasError()  
[2025-May-27 16:19:38] [trace] [  JLink] - JLINK_Lock()  
[2025-May-27 16:19:38] [debug] [SeggerBackend] - is_connected_to_emu
[2025-May-27 16:19:38] [debug] [SeggerBackend] - read_debug_port_idr
[2025-May-27 16:19:38] [debug] [SeggerBackend] - read_debug_port_register
[2025-May-27 16:19:38] [debug] [SeggerBackend] - ---just_read_debug_port_register
[2025-May-27 16:19:38] [debug] [SeggerBackend] - coresight_configure
[2025-May-27 16:19:38] [trace] [  JLink] - JLINK_GetHWStatus(...)  
[2025-May-27 16:19:38] [trace] [  JLink] - - 1.758ms returns 0  
[2025-May-27 16:19:38] [trace] [  JLink] - JLINK_HasError()  
[2025-May-27 16:19:38] [trace] [  JLink] - JLINK_CORESIGHT_Configure()  
[2025-May-27 16:19:38] [trace] [  JLink] - - 0.929ms returns 0  
[2025-May-27 16:19:38] [trace] [  JLink] - JLINK_HasError()  
[2025-May-27 16:19:38] [debug] [SeggerBackend] - read_debug_port_idr
[2025-May-27 16:19:38] [debug] [SeggerBackend] - read_debug_port_register
[2025-May-27 16:19:38] [debug] [SeggerBackend] - ---just_read_debug_port_register
[2025-May-27 16:19:38] [debug] [SeggerBackend] - ---just_select_debug_port_register
[2025-May-27 16:19:38] [debug] [SeggerBackend] - Select AP 255, DP Bank 0, AP Bank 255
[2025-May-27 16:19:38] [trace] [  JLink] - JLINK_CORESIGHT_WriteAPDPReg(DP reg 0x02, 0x00000000)  
[2025-May-27 16:19:38] [trace] [  JLink] - - 0.718ms returns 0  
[2025-May-27 16:19:38] [trace] [  JLink] - JLINK_HasError()  
[2025-May-27 16:19:38] [trace] [  JLink] - JLINK_CORESIGHT_ReadAPDPReg(DP reg 0x00)  
[2025-May-27 16:19:38] [trace] [  JLink] - Value=0x6BA02477
[2025-May-27 16:19:38] [trace] [  JLink] - - 0.352ms returns 0  
[2025-May-27 16:19:38] [trace] [  JLink] - JLINK_HasError()  
[2025-May-27 16:19:38] [debug] [SeggerBackend] - ---just_select_debug_port_register
[2025-May-27 16:19:38] [trace] [  JLink] - JLINK_CORESIGHT_ReadAPDPReg(DP reg 0x00)  
[2025-May-27 16:19:38] [trace] [  JLink] - Value=0x6BA02477
[2025-May-27 16:19:38] [trace] [  JLink] - - 0.971ms returns 0  
[2025-May-27 16:19:38] [trace] [  JLink] - JLINK_HasError()  
[2025-May-27 16:19:38] [debug] [SeggerBackend] - read_access_port_idr
[2025-May-27 16:19:38] [debug] [SeggerBackend] - read_access_port_register
[2025-May-27 16:19:38] [debug] [SeggerBackend] - ---just_read_access_port_register
[2025-May-27 16:19:38] [debug] [SeggerBackend] - ---just_is_debug_region_powered
[2025-May-27 16:19:38] [debug] [SeggerBackend] - ---just_read_debug_port_register
[2025-May-27 16:19:38] [debug] [SeggerBackend] - ---just_select_debug_port_register
[2025-May-27 16:19:38] [trace] [  JLink] - JLINK_CORESIGHT_ReadAPDPReg(DP reg 0x01)  
[2025-May-27 16:19:38] [trace] [  JLink] - Value=0xF0000000
[2025-May-27 16:19:38] [trace] [  JLink] - - 0.746ms returns 0  
[2025-May-27 16:19:38] [trace] [  JLink] - JLINK_HasError()  
[2025-May-27 16:19:38] [debug] [SeggerBackend] - ---just_select_access_port_register
[2025-May-27 16:19:38] [debug] [SeggerBackend] - Select AP 0, DP Bank 0, AP Bank 15
[2025-May-27 16:19:38] [trace] [  JLink] - JLINK_CORESIGHT_WriteAPDPReg(DP reg 0x02, 0x000000F0)  
[2025-May-27 16:19:38] [trace] [  JLink] - - 0.623ms returns 0  
[2025-May-27 16:19:38] [trace] [  JLink] - JLINK_HasError()  
[2025-May-27 16:19:38] [trace] [  JLink] - JLINK_CORESIGHT_ReadAPDPReg(AP reg 0x03)  
[2025-May-27 16:19:38] [trace] [  JLink] - Value=0x84770001
[2025-May-27 16:19:38] [trace] [  JLink] - - 0.464ms returns 0  
[2025-May-27 16:19:38] [trace] [  JLink] - JLINK_HasError()  
[2025-May-27 16:19:38] [debug] [SeggerBackend] - read_access_port_register
[2025-May-27 16:19:38] [debug] [SeggerBackend] - ---just_read_access_port_register
[2025-May-27 16:19:38] [debug] [SeggerBackend] - ---just_select_access_port_register
[2025-May-27 16:19:38] [debug] [SeggerBackend] - Select AP 0, DP Bank 0, AP Bank 0
[2025-May-27 16:19:38] [trace] [  JLink] - JLINK_CORESIGHT_WriteAPDPReg(DP reg 0x02, 0x00000000)  
[2025-May-27 16:19:38] [trace] [  JLink] - - 1.941ms returns 0  
[2025-May-27 16:19:38] [trace] [  JLink] - JLINK_HasError()  
[2025-May-27 16:19:38] [trace] [  JLink] - JLINK_CORESIGHT_ReadAPDPReg(AP reg 0x00)  
[2025-May-27 16:19:38] [trace] [  JLink] - Value=0x43800042
[2025-May-27 16:19:38] [trace] [  JLink] - - 1.056ms returns 0  
[2025-May-27 16:19:38] [trace] [  JLink] - JLINK_HasError()  
[2025-May-27 16:19:38] [debug] [SeggerBackend] - read_access_port_idr
[2025-May-27 16:19:38] [debug] [SeggerBackend] - read_access_port_register
[2025-May-27 16:19:38] [debug] [SeggerBackend] - ---just_read_access_port_register
[2025-May-27 16:19:38] [debug] [SeggerBackend] - ---just_select_access_port_register
[2025-May-27 16:19:38] [debug] [SeggerBackend] - Select AP 1, DP Bank 0, AP Bank 15
[2025-May-27 16:19:38] [trace] [  JLink] - JLINK_CORESIGHT_WriteAPDPReg(DP reg 0x02, 0x010000F0)  
[2025-May-27 16:19:38] [trace] [  JLink] - - 1.063ms returns 0  
[2025-May-27 16:19:38] [trace] [  JLink] - JLINK_HasError()  
[2025-May-27 16:19:38] [trace] [  JLink] - JLINK_CORESIGHT_ReadAPDPReg(AP reg 0x03)  
[2025-May-27 16:19:38] [trace] [  JLink] - Value=0x84770001
[2025-May-27 16:19:38] [trace] [  JLink] - - 0.885ms returns 0  
[2025-May-27 16:19:38] [trace] [  JLink] - JLINK_HasError()  
[2025-May-27 16:19:38] [debug] [SeggerBackend] - read_access_port_register
[2025-May-27 16:19:38] [debug] [SeggerBackend] - ---just_read_access_port_register
[2025-May-27 16:19:38] [debug] [SeggerBackend] - ---just_select_access_port_register
[2025-May-27 16:19:38] [debug] [SeggerBackend] - Select AP 1, DP Bank 0, AP Bank 0
[2025-May-27 16:19:38] [trace] [  JLink] - JLINK_CORESIGHT_WriteAPDPReg(DP reg 0x02, 0x01000000)  
[2025-May-27 16:19:38] [trace] [  JLink] - - 2.398ms returns 0  
[2025-May-27 16:19:38] [trace] [  JLink] - JLINK_HasError()  
[2025-May-27 16:19:38] [trace] [  JLink] - JLINK_CORESIGHT_ReadAPDPReg(AP reg 0x00)  
[2025-May-27 16:19:38] [trace] [  JLink] - Value=0x43000002
[2025-May-27 16:19:38] [trace] [  JLink] - - 0.692ms returns 0  
[2025-May-27 16:19:38] [trace] [  JLink] - JLINK_HasError()  
[2025-May-27 16:19:38] [debug] [SeggerBackend] - read_access_port_idr
[2025-May-27 16:19:38] [debug] [SeggerBackend] - read_access_port_register
[2025-May-27 16:19:38] [debug] [SeggerBackend] - ---just_read_access_port_register
[2025-May-27 16:19:38] [debug] [SeggerBackend] - ---just_select_access_port_register
[2025-May-27 16:19:38] [debug] [SeggerBackend] - Select AP 2, DP Bank 0, AP Bank 15
[2025-May-27 16:19:38] [trace] [  JLink] - JLINK_CORESIGHT_WriteAPDPReg(DP reg 0x02, 0x020000F0)  
[2025-May-27 16:19:38] [trace] [  JLink] - - 0.576ms returns 0  
[2025-May-27 16:19:38] [trace] [  JLink] - JLINK_HasError()  
[2025-May-27 16:19:38] [trace] [  JLink] - JLINK_CORESIGHT_ReadAPDPReg(AP reg 0x03)  
[2025-May-27 16:19:38] [trace] [  JLink] - Value=0x12880000
[2025-May-27 16:19:38] [trace] [  JLink] - - 0.741ms returns 0  
[2025-May-27 16:19:38] [trace] [  JLink] - JLINK_HasError()  
[2025-May-27 16:19:38] [debug] [SeggerBackend] - read_access_port_register
[2025-May-27 16:19:38] [debug] [SeggerBackend] - ---just_read_access_port_register
[2025-May-27 16:19:38] [debug] [SeggerBackend] - ---just_select_access_port_register
[2025-May-27 16:19:38] [debug] [SeggerBackend] - Select AP 2, DP Bank 0, AP Bank 0
[2025-May-27 16:19:38] [trace] [  JLink] - JLINK_CORESIGHT_WriteAPDPReg(DP reg 0x02, 0x02000000)  
[2025-May-27 16:19:38] [trace] [  JLink] - - 1.587ms returns 0  
[2025-May-27 16:19:38] [trace] [  JLink] - JLINK_HasError()  
[2025-May-27 16:19:38] [trace] [  JLink] - JLINK_CORESIGHT_ReadAPDPReg(AP reg 0x00)  
[2025-May-27 16:19:38] [trace] [  JLink] - Value=0x00000000
[2025-May-27 16:19:38] [trace] [  JLink] - - 0.601ms returns 0  
[2025-May-27 16:19:38] [trace] [  JLink] - JLINK_HasError()  
[2025-May-27 16:19:38] [debug] [SeggerBackend] - read_access_port_idr
[2025-May-27 16:19:38] [debug] [SeggerBackend] - read_access_port_register
[2025-May-27 16:19:38] [debug] [SeggerBackend] - ---just_read_access_port_register
[2025-May-27 16:19:38] [debug] [SeggerBackend] - ---just_select_access_port_register
[2025-May-27 16:19:38] [debug] [SeggerBackend] - Select AP 3, DP Bank 0, AP Bank 15
[2025-May-27 16:19:38] [trace] [  JLink] - JLINK_CORESIGHT_WriteAPDPReg(DP reg 0x02, 0x030000F0)  
[2025-May-27 16:19:38] [trace] [  JLink] - - 1.412ms returns 0  
[2025-May-27 16:19:38] [trace] [  JLink] - JLINK_HasError()  
[2025-May-27 16:19:38] [trace] [  JLink] - JLINK_CORESIGHT_ReadAPDPReg(AP reg 0x03)  
[2025-May-27 16:19:38] [trace] [  JLink] - Value=0x12880000
[2025-May-27 16:19:38] [trace] [  JLink] - - 0.606ms returns 0  
[2025-May-27 16:19:38] [trace] [  JLink] - JLINK_HasError()  
[2025-May-27 16:19:38] [debug] [SeggerBackend] - read_access_port_register
[2025-May-27 16:19:38] [debug] [SeggerBackend] - ---just_read_access_port_register
[2025-May-27 16:19:38] [debug] [SeggerBackend] - ---just_select_access_port_register
[2025-May-27 16:19:38] [debug] [SeggerBackend] - Select AP 3, DP Bank 0, AP Bank 0
[2025-May-27 16:19:38] [trace] [  JLink] - JLINK_CORESIGHT_WriteAPDPReg(DP reg 0x02, 0x03000000)  
[2025-May-27 16:19:38] [trace] [  JLink] - - 0.653ms returns 0  
[2025-May-27 16:19:38] [trace] [  JLink] - JLINK_HasError()  
[2025-May-27 16:19:38] [trace] [  JLink] - JLINK_CORESIGHT_ReadAPDPReg(AP reg 0x00)  
[2025-May-27 16:19:38] [trace] [  JLink] - Value=0x00000000
[2025-May-27 16:19:38] [trace] [  JLink] - - 0.693ms returns 0  
[2025-May-27 16:19:38] [trace] [  JLink] - JLINK_HasError()  
[2025-May-27 16:19:38] [debug] [SeggerBackend] - read_access_port_idr
[2025-May-27 16:19:38] [debug] [SeggerBackend] - read_access_port_register
[2025-May-27 16:19:38] [debug] [SeggerBackend] - ---just_read_access_port_register
[2025-May-27 16:19:38] [debug] [SeggerBackend] - ---just_select_access_port_register
[2025-May-27 16:19:38] [debug] [SeggerBackend] - Select AP 4, DP Bank 0, AP Bank 15
[2025-May-27 16:19:38] [trace] [  JLink] - JLINK_CORESIGHT_WriteAPDPReg(DP reg 0x02, 0x040000F0)  
[2025-May-27 16:19:38] [trace] [  JLink] - - 1.539ms returns 0  
[2025-May-27 16:19:38] [trace] [  JLink] - JLINK_HasError()  
[2025-May-27 16:19:38] [trace] [  JLink] - JLINK_CORESIGHT_ReadAPDPReg(AP reg 0x03)  
[2025-May-27 16:19:38] [trace] [  JLink] - Value=0x00000000
[2025-May-27 16:19:38] [trace] [  JLink] - - 0.477ms returns 0  
[2025-May-27 16:19:38] [trace] [  JLink] - JLINK_HasError()  
[2025-May-27 16:19:38] [debug] [SeggerBackend] - read_access_port_register
[2025-May-27 16:19:38] [debug] [SeggerBackend] - ---just_read_access_port_register
[2025-May-27 16:19:38] [debug] [SeggerBackend] - ---just_select_access_port_register
[2025-May-27 16:19:38] [debug] [SeggerBackend] - Select AP 4, DP Bank 0, AP Bank 0
[2025-May-27 16:19:38] [trace] [  JLink] - JLINK_CORESIGHT_WriteAPDPReg(DP reg 0x02, 0x04000000)  
[2025-May-27 16:19:38] [trace] [  JLink] - - 0.805ms returns 0  
[2025-May-27 16:19:38] [trace] [  JLink] - JLINK_HasError()  
[2025-May-27 16:19:38] [trace] [  JLink] - JLINK_CORESIGHT_ReadAPDPReg(AP reg 0x00)  
[2025-May-27 16:19:38] [trace] [  JLink] - Value=0x00000000
[2025-May-27 16:19:38] [trace] [  JLink] - - 0.582ms returns 0  
[2025-May-27 16:19:38] [trace] [  JLink] - JLINK_HasError()  
[2025-May-27 16:19:38] [debug] [SeggerBackend] - read_access_port_idr
[2025-May-27 16:19:38] [debug] [SeggerBackend] - read_access_port_register
[2025-May-27 16:19:38] [debug] [SeggerBackend] - ---just_read_access_port_register
[2025-May-27 16:19:38] [debug] [SeggerBackend] - ---just_select_access_port_register
[2025-May-27 16:19:38] [debug] [SeggerBackend] - Select AP 5, DP Bank 0, AP Bank 15
[2025-May-27 16:19:38] [trace] [  JLink] - JLINK_CORESIGHT_WriteAPDPReg(DP reg 0x02, 0x050000F0)  
[2025-May-27 16:19:38] [trace] [  JLink] - - 0.329ms returns 0  
[2025-May-27 16:19:38] [trace] [  JLink] - JLINK_HasError()  
[2025-May-27 16:19:38] [trace] [  JLink] - JLINK_CORESIGHT_ReadAPDPReg(AP reg 0x03)  
[2025-May-27 16:19:38] [trace] [  JLink] - Value=0x00000000
[2025-May-27 16:19:38] [trace] [  JLink] - - 0.489ms returns 0  
[2025-May-27 16:19:38] [trace] [  JLink] - JLINK_HasError()  
[2025-May-27 16:19:38] [debug] [SeggerBackend] - read_access_port_register
[2025-May-27 16:19:38] [debug] [SeggerBackend] - ---just_read_access_port_register
[2025-May-27 16:19:38] [debug] [SeggerBackend] - ---just_select_access_port_register
[2025-May-27 16:19:38] [debug] [SeggerBackend] - Select AP 5, DP Bank 0, AP Bank 0
[2025-May-27 16:19:38] [trace] [  JLink] - JLINK_CORESIGHT_WriteAPDPReg(DP reg 0x02, 0x05000000)  
[2025-May-27 16:19:38] [trace] [  JLink] - - 0.776ms returns 0  
[2025-May-27 16:19:38] [trace] [  JLink] - JLINK_HasError()  
[2025-May-27 16:19:38] [trace] [  JLink] - JLINK_CORESIGHT_ReadAPDPReg(AP reg 0x00)  
[2025-May-27 16:19:38] [trace] [  JLink] - Value=0x00000000
[2025-May-27 16:19:38] [trace] [  JLink] - - 0.725ms returns 0  
[2025-May-27 16:19:38] [trace] [  JLink] - JLINK_HasError()  
[2025-May-27 16:19:38] [debug] [SeggerBackend] - read_access_port_idr
[2025-May-27 16:19:38] [debug] [SeggerBackend] - read_access_port_register
[2025-May-27 16:19:38] [debug] [SeggerBackend] - ---just_read_access_port_register
[2025-May-27 16:19:38] [debug] [SeggerBackend] - ---just_select_access_port_register
[2025-May-27 16:19:38] [debug] [SeggerBackend] - Select AP 6, DP Bank 0, AP Bank 15
[2025-May-27 16:19:38] [trace] [  JLink] - JLINK_CORESIGHT_WriteAPDPReg(DP reg 0x02, 0x060000F0)  
[2025-May-27 16:19:38] [trace] [  JLink] - - 1.657ms returns 0  
[2025-May-27 16:19:38] [trace] [  JLink] - JLINK_HasError()  
[2025-May-27 16:19:38] [trace] [  JLink] - JLINK_CORESIGHT_ReadAPDPReg(AP reg 0x03)  
[2025-May-27 16:19:38] [trace] [  JLink] - Value=0x00000000
[2025-May-27 16:19:38] [trace] [  JLink] - - 1.737ms returns 0  
[2025-May-27 16:19:38] [trace] [  JLink] - JLINK_HasError()  
[2025-May-27 16:19:38] [debug] [SeggerBackend] - read_access_port_register
[2025-May-27 16:19:38] [debug] [SeggerBackend] - ---just_read_access_port_register
[2025-May-27 16:19:38] [debug] [SeggerBackend] - ---just_select_access_port_register
[2025-May-27 16:19:38] [debug] [SeggerBackend] - Select AP 6, DP Bank 0, AP Bank 0
[2025-May-27 16:19:38] [trace] [  JLink] - JLINK_CORESIGHT_WriteAPDPReg(DP reg 0x02, 0x06000000)  
[2025-May-27 16:19:38] [trace] [  JLink] - - 1.720ms returns 0  
[2025-May-27 16:19:38] [trace] [  JLink] - JLINK_HasError()  
[2025-May-27 16:19:38] [trace] [  JLink] - JLINK_CORESIGHT_ReadAPDPReg(AP reg 0x00)  
[2025-May-27 16:19:38] [trace] [  JLink] - Value=0x00000000
[2025-May-27 16:19:38] [trace] [  JLink] - - 1.650ms returns 0  
[2025-May-27 16:19:38] [trace] [  JLink] - JLINK_HasError()  
[2025-May-27 16:19:38] [debug] [SeggerBackend] - read_access_port_idr
[2025-May-27 16:19:38] [debug] [SeggerBackend] - read_access_port_register
[2025-May-27 16:19:38] [debug] [SeggerBackend] - ---just_read_access_port_register
[2025-May-27 16:19:38] [debug] [SeggerBackend] - ---just_select_access_port_register
[2025-May-27 16:19:38] [debug] [SeggerBackend] - Select AP 7, DP Bank 0, AP Bank 15
[2025-May-27 16:19:38] [trace] [  JLink] - JLINK_CORESIGHT_WriteAPDPReg(DP reg 0x02, 0x070000F0)  
[2025-May-27 16:19:38] [trace] [  JLink] - - 0.562ms returns 0  
[2025-May-27 16:19:38] [trace] [  JLink] - JLINK_HasError()  
[2025-May-27 16:19:38] [trace] [  JLink] - JLINK_CORESIGHT_ReadAPDPReg(AP reg 0x03)  
[2025-May-27 16:19:38] [trace] [  JLink] - Value=0x00000000
[2025-May-27 16:19:38] [trace] [  JLink] - - 1.363ms returns 0  
[2025-May-27 16:19:38] [trace] [  JLink] - JLINK_HasError()  
[2025-May-27 16:19:38] [debug] [SeggerBackend] - read_access_port_register
[2025-May-27 16:19:38] [debug] [SeggerBackend] - ---just_read_access_port_register
[2025-May-27 16:19:38] [debug] [SeggerBackend] - ---just_select_access_port_register
[2025-May-27 16:19:38] [debug] [SeggerBackend] - Select AP 7, DP Bank 0, AP Bank 0
[2025-May-27 16:19:38] [trace] [  JLink] - JLINK_CORESIGHT_WriteAPDPReg(DP reg 0x02, 0x07000000)  
[2025-May-27 16:19:38] [trace] [  JLink] - - 0.665ms returns 0  
[2025-May-27 16:19:38] [trace] [  JLink] - JLINK_HasError()  
[2025-May-27 16:19:38] [trace] [  JLink] - JLINK_CORESIGHT_ReadAPDPReg(AP reg 0x00)  
[2025-May-27 16:19:38] [trace] [  JLink] - Value=0x00000000
[2025-May-27 16:19:38] [trace] [  JLink] - - 0.389ms returns 0  
[2025-May-27 16:19:38] [trace] [  JLink] - JLINK_HasError()  
[2025-May-27 16:19:38] [debug] [SeggerBackend] - read_access_port_idr
[2025-May-27 16:19:38] [debug] [SeggerBackend] - read_access_port_register
[2025-May-27 16:19:38] [debug] [SeggerBackend] - ---just_read_access_port_register
[2025-May-27 16:19:38] [debug] [SeggerBackend] - ---just_select_access_port_register
[2025-May-27 16:19:38] [debug] [SeggerBackend] - Select AP 8, DP Bank 0, AP Bank 15
[2025-May-27 16:19:38] [trace] [  JLink] - JLINK_CORESIGHT_WriteAPDPReg(DP reg 0x02, 0x080000F0)  
[2025-May-27 16:19:38] [trace] [  JLink] - - 0.455ms returns 0  
[2025-May-27 16:19:38] [trace] [  JLink] - JLINK_HasError()  
[2025-May-27 16:19:38] [trace] [  JLink] - JLINK_CORESIGHT_ReadAPDPReg(AP reg 0x03)  
[2025-May-27 16:19:38] [trace] [  JLink] - Value=0x00000000
[2025-May-27 16:19:38] [trace] [  JLink] - - 1.444ms returns 0  
[2025-May-27 16:19:38] [trace] [  JLink] - JLINK_HasError()  
[2025-May-27 16:19:38] [debug] [SeggerBackend] - read_access_port_register
[2025-May-27 16:19:38] [debug] [SeggerBackend] - ---just_read_access_port_register
[2025-May-27 16:19:38] [debug] [SeggerBackend] - ---just_select_access_port_register
[2025-May-27 16:19:38] [debug] [SeggerBackend] - Select AP 8, DP Bank 0, AP Bank 0
[2025-May-27 16:19:38] [trace] [  JLink] - JLINK_CORESIGHT_WriteAPDPReg(DP reg 0x02, 0x08000000)  
[2025-May-27 16:19:38] [trace] [  JLink] - - 0.423ms returns 0  
[2025-May-27 16:19:38] [trace] [  JLink] - JLINK_HasError()  
[2025-May-27 16:19:38] [trace] [  JLink] - JLINK_CORESIGHT_ReadAPDPReg(AP reg 0x00)  
[2025-May-27 16:19:38] [trace] [  JLink] - Value=0x00000000
[2025-May-27 16:19:38] [trace] [  JLink] - - 0.714ms returns 0  
[2025-May-27 16:19:38] [trace] [  JLink] - JLINK_HasError()  
[2025-May-27 16:19:38] [debug] [SeggerBackend] - read_access_port_idr
[2025-May-27 16:19:38] [debug] [SeggerBackend] - read_access_port_register
[2025-May-27 16:19:38] [debug] [SeggerBackend] - ---just_read_access_port_register
[2025-May-27 16:19:38] [debug] [SeggerBackend] - ---just_select_access_port_register
[2025-May-27 16:19:38] [debug] [SeggerBackend] - Select AP 9, DP Bank 0, AP Bank 15
[2025-May-27 16:19:38] [trace] [  JLink] - JLINK_CORESIGHT_WriteAPDPReg(DP reg 0x02, 0x090000F0)  
[2025-May-27 16:19:38] [trace] [  JLink] - - 0.637ms returns 0  
[2025-May-27 16:19:38] [trace] [  JLink] - JLINK_HasError()  
[2025-May-27 16:19:38] [trace] [  JLink] - JLINK_CORESIGHT_ReadAPDPReg(AP reg 0x03)  
[2025-May-27 16:19:38] [trace] [  JLink] - Value=0x00000000
[2025-May-27 16:19:38] [trace] [  JLink] - - 0.373ms returns 0  
[2025-May-27 16:19:38] [trace] [  JLink] - JLINK_HasError()  
[2025-May-27 16:19:38] [debug] [SeggerBackend] - read_access_port_register
[2025-May-27 16:19:38] [debug] [SeggerBackend] - ---just_read_access_port_register
[2025-May-27 16:19:38] [debug] [SeggerBackend] - ---just_select_access_port_register
[2025-May-27 16:19:38] [debug] [SeggerBackend] - Select AP 9, DP Bank 0, AP Bank 0
[2025-May-27 16:19:38] [trace] [  JLink] - JLINK_CORESIGHT_WriteAPDPReg(DP reg 0x02, 0x09000000)  
[2025-May-27 16:19:38] [trace] [  JLink] - - 0.572ms returns 0  
[2025-May-27 16:19:38] [trace] [  JLink] - JLINK_HasError()  
[2025-May-27 16:19:38] [trace] [  JLink] - JLINK_CORESIGHT_ReadAPDPReg(AP reg 0x00)  
[2025-May-27 16:19:38] [trace] [  JLink] - Value=0x00000000
[2025-May-27 16:19:38] [trace] [  JLink] - - 0.580ms returns 0  
[2025-May-27 16:19:38] [trace] [  JLink] - JLINK_HasError()  
[2025-May-27 16:19:38] [debug] [SeggerBackend] - read_access_port_idr
[2025-May-27 16:19:38] [debug] [SeggerBackend] - read_access_port_register
[2025-May-27 16:19:38] [debug] [SeggerBackend] - ---just_read_access_port_register
[2025-May-27 16:19:38] [debug] [SeggerBackend] - ---just_select_access_port_register
[2025-May-27 16:19:38] [debug] [SeggerBackend] - Select AP 10, DP Bank 0, AP Bank 15
[2025-May-27 16:19:38] [trace] [  JLink] - JLINK_CORESIGHT_WriteAPDPReg(DP reg 0x02, 0x0A0000F0)  
[2025-May-27 16:19:38] [trace] [  JLink] - - 0.432ms returns 0  
[2025-May-27 16:19:38] [trace] [  JLink] - JLINK_HasError()  
[2025-May-27 16:19:38] [trace] [  JLink] - JLINK_CORESIGHT_ReadAPDPReg(AP reg 0x03)  
[2025-May-27 16:19:38] [trace] [  JLink] - Value=0x00000000
[2025-May-27 16:19:38] [trace] [  JLink] - - 0.482ms returns 0  
[2025-May-27 16:19:38] [trace] [  JLink] - JLINK_HasError()  
[2025-May-27 16:19:38] [debug] [SeggerBackend] - read_access_port_register
[2025-May-27 16:19:38] [debug] [SeggerBackend] - ---just_read_access_port_register
[2025-May-27 16:19:38] [debug] [SeggerBackend] - ---just_select_access_port_register
[2025-May-27 16:19:38] [debug] [SeggerBackend] - Select AP 10, DP Bank 0, AP Bank 0
[2025-May-27 16:19:38] [trace] [  JLink] - JLINK_CORESIGHT_WriteAPDPReg(DP reg 0x02, 0x0A000000)  
[2025-May-27 16:19:38] [trace] [  JLink] - - 0.407ms returns 0  
[2025-May-27 16:19:38] [trace] [  JLink] - JLINK_HasError()  
[2025-May-27 16:19:38] [trace] [  JLink] - JLINK_CORESIGHT_ReadAPDPReg(AP reg 0x00)  
[2025-May-27 16:19:38] [trace] [  JLink] - Value=0x00000000
[2025-May-27 16:19:38] [trace] [  JLink] - - 0.523ms returns 0  
[2025-May-27 16:19:38] [trace] [  JLink] - JLINK_HasError()  
[2025-May-27 16:19:38] [debug] [SeggerBackend] - read_access_port_idr
[2025-May-27 16:19:38] [debug] [SeggerBackend] - read_access_port_register
[2025-May-27 16:19:38] [debug] [SeggerBackend] - ---just_read_access_port_register
[2025-May-27 16:19:38] [debug] [SeggerBackend] - ---just_select_access_port_register
[2025-May-27 16:19:38] [debug] [SeggerBackend] - Select AP 11, DP Bank 0, AP Bank 15
[2025-May-27 16:19:38] [trace] [  JLink] - JLINK_CORESIGHT_WriteAPDPReg(DP reg 0x02, 0x0B0000F0)  
[2025-May-27 16:19:38] [trace] [  JLink] - - 0.498ms returns 0  
[2025-May-27 16:19:38] [trace] [  JLink] - JLINK_HasError()  
[2025-May-27 16:19:38] [trace] [  JLink] - JLINK_CORESIGHT_ReadAPDPReg(AP reg 0x03)  
[2025-May-27 16:19:38] [trace] [  JLink] - Value=0x00000000
[2025-May-27 16:19:38] [trace] [  JLink] - - 1.764ms returns 0  
[2025-May-27 16:19:38] [trace] [  JLink] - JLINK_HasError()  
[2025-May-27 16:19:38] [debug] [SeggerBackend] - read_access_port_register
[2025-May-27 16:19:38] [debug] [SeggerBackend] - ---just_read_access_port_register
[2025-May-27 16:19:38] [debug] [SeggerBackend] - ---just_select_access_port_register
[2025-May-27 16:19:38] [debug] [SeggerBackend] - Select AP 11, DP Bank 0, AP Bank 0
[2025-May-27 16:19:38] [trace] [  JLink] - JLINK_CORESIGHT_WriteAPDPReg(DP reg 0x02, 0x0B000000)  
[2025-May-27 16:19:38] [trace] [  JLink] - - 0.505ms returns 0  
[2025-May-27 16:19:38] [trace] [  JLink] - JLINK_HasError()  
[2025-May-27 16:19:38] [trace] [  JLink] - JLINK_CORESIGHT_ReadAPDPReg(AP reg 0x00)  
[2025-May-27 16:19:38] [trace] [  JLink] - Value=0x00000000
[2025-May-27 16:19:38] [trace] [  JLink] - - 0.744ms returns 0  
[2025-May-27 16:19:38] [trace] [  JLink] - JLINK_HasError()  
[2025-May-27 16:19:38] [debug] [SeggerBackend] - read_access_port_idr
[2025-May-27 16:19:38] [debug] [SeggerBackend] - read_access_port_register
[2025-May-27 16:19:38] [debug] [SeggerBackend] - ---just_read_access_port_register
[2025-May-27 16:19:38] [debug] [SeggerBackend] - ---just_select_access_port_register
[2025-May-27 16:19:38] [debug] [SeggerBackend] - Select AP 12, DP Bank 0, AP Bank 15
[2025-May-27 16:19:38] [trace] [  JLink] - JLINK_CORESIGHT_WriteAPDPReg(DP reg 0x02, 0x0C0000F0)  
[2025-May-27 16:19:38] [trace] [  JLink] - - 1.713ms returns 0  
[2025-May-27 16:19:38] [trace] [  JLink] - JLINK_HasError()  
[2025-May-27 16:19:38] [trace] [  JLink] - JLINK_CORESIGHT_ReadAPDPReg(AP reg 0x03)  
[2025-May-27 16:19:38] [trace] [  JLink] - Value=0x00000000
[2025-May-27 16:19:38] [trace] [  JLink] - - 1.755ms returns 0  
[2025-May-27 16:19:38] [trace] [  JLink] - JLINK_HasError()  
[2025-May-27 16:19:38] [debug] [SeggerBackend] - read_access_port_register
[2025-May-27 16:19:38] [debug] [SeggerBackend] - ---just_read_access_port_register
[2025-May-27 16:19:38] [debug] [SeggerBackend] - ---just_select_access_port_register
[2025-May-27 16:19:38] [debug] [SeggerBackend] - Select AP 12, DP Bank 0, AP Bank 0
[2025-May-27 16:19:38] [trace] [  JLink] - JLINK_CORESIGHT_WriteAPDPReg(DP reg 0x02, 0x0C000000)  
[2025-May-27 16:19:38] [trace] [  JLink] - - 0.652ms returns 0  
[2025-May-27 16:19:38] [trace] [  JLink] - JLINK_HasError()  
[2025-May-27 16:19:38] [trace] [  JLink] - JLINK_CORESIGHT_ReadAPDPReg(AP reg 0x00)  
[2025-May-27 16:19:38] [trace] [  JLink] - Value=0x00000000
[2025-May-27 16:19:38] [trace] [  JLink] - - 1.772ms returns 0  
[2025-May-27 16:19:38] [trace] [  JLink] - JLINK_HasError()  
[2025-May-27 16:19:38] [debug] [SeggerBackend] - read_access_port_idr
[2025-May-27 16:19:38] [debug] [SeggerBackend] - read_access_port_register
[2025-May-27 16:19:38] [debug] [SeggerBackend] - ---just_read_access_port_register
[2025-May-27 16:19:38] [debug] [SeggerBackend] - ---just_select_access_port_register
[2025-May-27 16:19:38] [debug] [SeggerBackend] - Select AP 13, DP Bank 0, AP Bank 15
[2025-May-27 16:19:38] [trace] [  JLink] - JLINK_CORESIGHT_WriteAPDPReg(DP reg 0x02, 0x0D0000F0)  
[2025-May-27 16:19:38] [trace] [  JLink] - - 1.762ms returns 0  
[2025-May-27 16:19:38] [trace] [  JLink] - JLINK_HasError()  
[2025-May-27 16:19:38] [trace] [  JLink] - JLINK_CORESIGHT_ReadAPDPReg(AP reg 0x03)  
[2025-May-27 16:19:38] [trace] [  JLink] - Value=0x00000000
[2025-May-27 16:19:38] [trace] [  JLink] - - 0.486ms returns 0  
[2025-May-27 16:19:38] [trace] [  JLink] - JLINK_HasError()  
[2025-May-27 16:19:38] [debug] [SeggerBackend] - read_access_port_register
[2025-May-27 16:19:38] [debug] [SeggerBackend] - ---just_read_access_port_register
[2025-May-27 16:19:38] [debug] [SeggerBackend] - ---just_select_access_port_register
[2025-May-27 16:19:38] [debug] [SeggerBackend] - Select AP 13, DP Bank 0, AP Bank 0
[2025-May-27 16:19:38] [trace] [  JLink] - JLINK_CORESIGHT_WriteAPDPReg(DP reg 0x02, 0x0D000000)  
[2025-May-27 16:19:38] [trace] [  JLink] - - 0.325ms returns 0  
[2025-May-27 16:19:38] [trace] [  JLink] - JLINK_HasError()  
[2025-May-27 16:19:38] [trace] [  JLink] - JLINK_CORESIGHT_ReadAPDPReg(AP reg 0x00)  
[2025-May-27 16:19:38] [trace] [  JLink] - Value=0x00000000
[2025-May-27 16:19:38] [trace] [  JLink] - - 0.735ms returns 0  
[2025-May-27 16:19:38] [trace] [  JLink] - JLINK_HasError()  
[2025-May-27 16:19:38] [debug] [SeggerBackend] - read_access_port_idr
[2025-May-27 16:19:38] [debug] [SeggerBackend] - read_access_port_register
[2025-May-27 16:19:38] [debug] [SeggerBackend] - ---just_read_access_port_register
[2025-May-27 16:19:38] [debug] [SeggerBackend] - ---just_select_access_port_register
[2025-May-27 16:19:38] [debug] [SeggerBackend] - Select AP 14, DP Bank 0, AP Bank 15
[2025-May-27 16:19:38] [trace] [  JLink] - JLINK_CORESIGHT_WriteAPDPReg(DP reg 0x02, 0x0E0000F0)  
[2025-May-27 16:19:38] [trace] [  JLink] - - 0.560ms returns 0  
[2025-May-27 16:19:38] [trace] [  JLink] - JLINK_HasError()  
[2025-May-27 16:19:38] [trace] [  JLink] - JLINK_CORESIGHT_ReadAPDPReg(AP reg 0x03)  
[2025-May-27 16:19:38] [trace] [  JLink] - Value=0x00000000
[2025-May-27 16:19:38] [trace] [  JLink] - - 0.525ms returns 0  
[2025-May-27 16:19:38] [trace] [  JLink] - JLINK_HasError()  
[2025-May-27 16:19:38] [debug] [SeggerBackend] - read_access_port_register
[2025-May-27 16:19:38] [debug] [SeggerBackend] - ---just_read_access_port_register
[2025-May-27 16:19:38] [debug] [SeggerBackend] - ---just_select_access_port_register
[2025-May-27 16:19:38] [debug] [SeggerBackend] - Select AP 14, DP Bank 0, AP Bank 0
[2025-May-27 16:19:38] [trace] [  JLink] - JLINK_CORESIGHT_WriteAPDPReg(DP reg 0x02, 0x0E000000)  
[2025-May-27 16:19:38] [trace] [  JLink] - - 0.356ms returns 0  
[2025-May-27 16:19:38] [trace] [  JLink] - JLINK_HasError()  
[2025-May-27 16:19:38] [trace] [  JLink] - JLINK_CORESIGHT_ReadAPDPReg(AP reg 0x00)  
[2025-May-27 16:19:38] [trace] [  JLink] - Value=0x00000000
[2025-May-27 16:19:38] [trace] [  JLink] - - 0.730ms returns 0  
[2025-May-27 16:19:38] [trace] [  JLink] - JLINK_HasError()  
[2025-May-27 16:19:38] [debug] [SeggerBackend] - read_access_port_idr
[2025-May-27 16:19:38] [debug] [SeggerBackend] - read_access_port_register
[2025-May-27 16:19:38] [debug] [SeggerBackend] - ---just_read_access_port_register
[2025-May-27 16:19:38] [debug] [SeggerBackend] - ---just_select_access_port_register
[2025-May-27 16:19:38] [debug] [SeggerBackend] - Select AP 15, DP Bank 0, AP Bank 15
[2025-May-27 16:19:38] [trace] [  JLink] - JLINK_CORESIGHT_WriteAPDPReg(DP reg 0x02, 0x0F0000F0)  
[2025-May-27 16:19:38] [trace] [  JLink] - - 1.016ms returns 0  
[2025-May-27 16:19:38] [trace] [  JLink] - JLINK_HasError()  
[2025-May-27 16:19:38] [trace] [  JLink] - JLINK_CORESIGHT_ReadAPDPReg(AP reg 0x03)  
[2025-May-27 16:19:38] [trace] [  JLink] - Value=0x00000000
[2025-May-27 16:19:38] [trace] [  JLink] - - 1.670ms returns 0  
[2025-May-27 16:19:38] [trace] [  JLink] - JLINK_HasError()  
[2025-May-27 16:19:38] [debug] [SeggerBackend] - read_access_port_register
[2025-May-27 16:19:38] [debug] [SeggerBackend] - ---just_read_access_port_register
[2025-May-27 16:19:38] [debug] [SeggerBackend] - ---just_select_access_port_register
[2025-May-27 16:19:38] [debug] [SeggerBackend] - Select AP 15, DP Bank 0, AP Bank 0
[2025-May-27 16:19:38] [trace] [  JLink] - JLINK_CORESIGHT_WriteAPDPReg(DP reg 0x02, 0x0F000000)  
[2025-May-27 16:19:38] [trace] [  JLink] - - 0.516ms returns 0  
[2025-May-27 16:19:38] [trace] [  JLink] - JLINK_HasError()  
[2025-May-27 16:19:38] [trace] [  JLink] - JLINK_CORESIGHT_ReadAPDPReg(AP reg 0x00)  
[2025-May-27 16:19:38] [trace] [  JLink] - Value=0x00000000
[2025-May-27 16:19:38] [trace] [  JLink] - - 0.579ms returns 0  
[2025-May-27 16:19:38] [trace] [  JLink] - JLINK_HasError()  
[2025-May-27 16:19:38] [debug] [SeggerBackend] - read_access_port_idr
[2025-May-27 16:19:38] [debug] [SeggerBackend] - read_access_port_register
[2025-May-27 16:19:38] [debug] [SeggerBackend] - ---just_read_access_port_register
[2025-May-27 16:19:38] [debug] [SeggerBackend] - ---just_select_access_port_register
[2025-May-27 16:19:38] [debug] [SeggerBackend] - Select AP 16, DP Bank 0, AP Bank 15
[2025-May-27 16:19:38] [trace] [  JLink] - JLINK_CORESIGHT_WriteAPDPReg(DP reg 0x02, 0x100000F0)  
[2025-May-27 16:19:38] [trace] [  JLink] - - 0.650ms returns 0  
[2025-May-27 16:19:38] [trace] [  JLink] - JLINK_HasError()  
[2025-May-27 16:19:38] [trace] [  JLink] - JLINK_CORESIGHT_ReadAPDPReg(AP reg 0x03)  
[2025-May-27 16:19:38] [trace] [  JLink] - Value=0x00000000
[2025-May-27 16:19:38] [trace] [  JLink] - - 0.753ms returns 0  
[2025-May-27 16:19:38] [trace] [  JLink] - JLINK_HasError()  
[2025-May-27 16:19:38] [debug] [SeggerBackend] - read_access_port_register
[2025-May-27 16:19:38] [debug] [SeggerBackend] - ---just_read_access_port_register
[2025-May-27 16:19:38] [debug] [SeggerBackend] - ---just_select_access_port_register
[2025-May-27 16:19:38] [debug] [SeggerBackend] - Select AP 16, DP Bank 0, AP Bank 0
[2025-May-27 16:19:38] [trace] [  JLink] - JLINK_CORESIGHT_WriteAPDPReg(DP reg 0x02, 0x10000000)  
[2025-May-27 16:19:38] [trace] [  JLink] - - 0.608ms returns 0  
[2025-May-27 16:19:38] [trace] [  JLink] - JLINK_HasError()  
[2025-May-27 16:19:38] [trace] [  JLink] - JLINK_CORESIGHT_ReadAPDPReg(AP reg 0x00)  
[2025-May-27 16:19:38] [trace] [  JLink] - Value=0x00000000
[2025-May-27 16:19:38] [trace] [  JLink] - - 1.427ms returns 0  
[2025-May-27 16:19:38] [trace] [  JLink] - JLINK_HasError()  
[2025-May-27 16:19:38] [debug] [SeggerBackend] - read_access_port_idr
[2025-May-27 16:19:38] [debug] [SeggerBackend] - read_access_port_register
[2025-May-27 16:19:38] [debug] [SeggerBackend] - ---just_read_access_port_register
[2025-May-27 16:19:38] [debug] [SeggerBackend] - ---just_select_access_port_register
[2025-May-27 16:19:38] [debug] [SeggerBackend] - Select AP 17, DP Bank 0, AP Bank 15
[2025-May-27 16:19:38] [trace] [  JLink] - JLINK_CORESIGHT_WriteAPDPReg(DP reg 0x02, 0x110000F0)  
[2025-May-27 16:19:38] [trace] [ Client] - Command connect_to_emu_with_snr executed for 520 milliseconds with result 0
[2025-May-27 16:19:38] [debug] [ Client] - read_connected_emu_snr
[2025-May-27 16:19:38] [trace] [ Client] - Command read_connected_emu_snr executed for 0 milliseconds with result 0
[2025-May-27 16:19:38] [debug] [ Client] - read_device_family
[2025-May-27 16:19:38] [trace] [ Client] - Command read_device_family executed for 0 milliseconds with result 0
[2025-May-27 16:19:38] [debug] [ Client] - select_family
[2025-May-27 16:19:38] [trace] [ Client] - Command select_family executed for 0 milliseconds with result 0
[2025-May-27 16:19:38] [debug] [ Client] - read_device_info
[2025-May-27 16:19:38] [trace] [ Client] - Command read_device_info executed for 4 milliseconds with result 0
[2025-May-27 16:19:38] [debug] [ Client] - read_memory_descriptors
[2025-May-27 16:19:38] [trace] [  JLink] - - 0.846ms returns 0  
[2025-May-27 16:19:38] [trace] [  JLink] - JLINK_HasError()  
[2025-May-27 16:19:38] [trace] [  JLink] - JLINK_CORESIGHT_ReadAPDPReg(AP reg 0x03)  
[2025-May-27 16:19:38] [trace] [  JLink] - Value=0x00000000
[2025-May-27 16:19:38] [trace] [  JLink] - - 0.879ms returns 0  
[2025-May-27 16:19:38] [trace] [  JLink] - JLINK_HasError()  
[2025-May-27 16:19:38] [debug] [SeggerBackend] - read_access_port_register
[2025-May-27 16:19:38] [debug] [SeggerBackend] - ---just_read_access_port_register
[2025-May-27 16:19:38] [debug] [SeggerBackend] - ---just_select_access_port_register
[2025-May-27 16:19:38] [debug] [SeggerBackend] - Select AP 17, DP Bank 0, AP Bank 0
[2025-May-27 16:19:38] [trace] [  JLink] - JLINK_CORESIGHT_WriteAPDPReg(DP reg 0x02, 0x11000000)  
[2025-May-27 16:19:38] [trace] [  JLink] - - 0.313ms returns 0  
[2025-May-27 16:19:38] [trace] [  JLink] - JLINK_HasError()  
[2025-May-27 16:19:38] [trace] [  JLink] - JLINK_CORESIGHT_ReadAPDPReg(AP reg 0x00)  
[2025-May-27 16:19:38] [trace] [  JLink] - Value=0x00000000
[2025-May-27 16:19:38] [trace] [  JLink] - - 0.711ms returns 0  
[2025-May-27 16:19:38] [trace] [  JLink] - JLINK_HasError()  
[2025-May-27 16:19:38] [debug] [SeggerBackend] - read_access_port_register
[2025-May-27 16:19:38] [debug] [SeggerBackend] - ---just_read_access_port_register
[2025-May-27 16:19:38] [debug] [SeggerBackend] - ---just_select_access_port_register
[2025-May-27 16:19:38] [debug] [SeggerBackend] - Select AP 2, DP Bank 0, AP Bank 3
[2025-May-27 16:19:38] [trace] [  JLink] - JLINK_CORESIGHT_WriteAPDPReg(DP reg 0x02, 0x02000030)  
[2025-May-27 16:19:38] [trace] [  JLink] - - 1.419ms returns 0  
[2025-May-27 16:19:38] [trace] [  JLink] - JLINK_HasError()  
[2025-May-27 16:19:38] [trace] [  JLink] - JLINK_CORESIGHT_ReadAPDPReg(AP reg 0x00)  
[2025-May-27 16:19:38] [trace] [  JLink] - Value=0x00000007
[2025-May-27 16:19:38] [trace] [  JLink] - - 0.644ms returns 0  
[2025-May-27 16:19:38] [trace] [  JLink] - JLINK_HasError()  
[2025-May-27 16:19:38] [ info] [  nRFXX] - Discovered device from family NRF53.
[2025-May-27 16:19:38] [trace] [  JLink] - - 0.015ms  
[2025-May-27 16:19:38] [debug] [  nRF53] - Just_load_coprocessor_data
[2025-May-27 16:19:38] [debug] [SeggerBackend] - set_core_data
[2025-May-27 16:19:38] [debug] [SeggerBackend] - Set core data:
[2025-May-27 16:19:38] [debug] [SeggerBackend] -   Device ID: Cortex-M33
[2025-May-27 16:19:38] [debug] [SeggerBackend] -   Expected core: 235012351
[2025-May-27 16:19:38] [debug] [SeggerBackend] -   Existing Expected core: 4294967295
[2025-May-27 16:19:38] [debug] [SeggerBackend] -   Coprocessor: APPLICATION
[2025-May-27 16:19:38] [debug] [SeggerBackend] -   AHB AP index: 0
[2025-May-27 16:19:38] [debug] [SeggerBackend] -   Core base address: 4294967295
[2025-May-27 16:19:38] [debug] [SeggerBackend] - ---set_coresight_ahb_ap_index
[2025-May-27 16:19:38] [trace] [  JLink] - JLINK_ExecCommand("CORESIGHT_SetIndexAHBAPToUse = 0", ...).   
[2025-May-27 16:19:38] [trace] [  JLink] - - 0.001ms returns 0x00  
[2025-May-27 16:19:38] [trace] [  JLink] - JLINK_HasError()  
[2025-May-27 16:19:38] [trace] [  JLink] - JLINK_ExecCommand("device = Cortex-M33", ...).   
[2025-May-27 16:19:38] [trace] [  JLink] - Device "CORTEX-M33" selected.
[2025-May-27 16:19:38] [trace] [  JLink] - Device "CORTEX-M33" selected.
[2025-May-27 16:19:38] [trace] [  JLink] - - 0.091ms returns 0x00  
[2025-May-27 16:19:38] [trace] [  JLink] - JLINK_HasError()  
[2025-May-27 16:19:38] [trace] [ Worker] - Command connect_to_emu_with_snr executed for 520 milliseconds with result 0
[2025-May-27 16:19:38] [debug] [  nRF53] - read_connected_emu_snr
[2025-May-27 16:19:38] [debug] [SeggerBackend] - is_connected_to_emu
[2025-May-27 16:19:38] [trace] [  JLink] - JLINK_IsOpen()  
[2025-May-27 16:19:38] [trace] [  JLink] - - 0.002ms returns 0x01  
[2025-May-27 16:19:38] [trace] [  JLink] - JLINK_HasError()  
[2025-May-27 16:19:38] [trace] [  JLink] - JLINK_Lock()  
[2025-May-27 16:19:38] [debug] [SeggerBackend] - read_connected_emu_snr
[2025-May-27 16:19:38] [trace] [  JLink] - - 0.001ms  
[2025-May-27 16:19:38] [trace] [ Worker] - Command read_connected_emu_snr executed for 0 milliseconds with result 0
[2025-May-27 16:19:38] [debug] [  nRF53] - read_device_family
[2025-May-27 16:19:38] [trace] [ Worker] - Command read_device_family executed for 0 milliseconds with result 0
[2025-May-27 16:19:38] [debug] [  nRF53] - Just_load_coprocessor_data
[2025-May-27 16:19:38] [debug] [SeggerBackend] - set_core_data
[2025-May-27 16:19:38] [debug] [SeggerBackend] - Set core data:
[2025-May-27 16:19:38] [debug] [SeggerBackend] -   Device ID: Cortex-M33
[2025-May-27 16:19:38] [debug] [SeggerBackend] -   Expected core: 235012351
[2025-May-27 16:19:38] [debug] [SeggerBackend] -   Existing Expected core: 235012351
[2025-May-27 16:19:38] [debug] [SeggerBackend] -   Coprocessor: APPLICATION
[2025-May-27 16:19:38] [debug] [SeggerBackend] -   AHB AP index: 0
[2025-May-27 16:19:38] [debug] [SeggerBackend] -   Core base address: 4294967295
[2025-May-27 16:19:38] [trace] [ Worker] - Command select_family executed for 0 milliseconds with result 0
[2025-May-27 16:19:38] [debug] [  nRF53] - read_device_info
[2025-May-27 16:19:38] [debug] [SeggerBackend] - is_connected_to_emu
[2025-May-27 16:19:38] [trace] [  JLink] - JLINK_IsOpen()  
[2025-May-27 16:19:38] [trace] [  JLink] - - 0.002ms returns 0x01  
[2025-May-27 16:19:38] [trace] [  JLink] - JLINK_HasError()  
[2025-May-27 16:19:38] [trace] [  JLink] - JLINK_Lock()  
[2025-May-27 16:19:38] [debug] [  nRF53] - Just_read_device_version
[2025-May-27 16:19:38] [debug] [SeggerBackend] - read_access_port_register
[2025-May-27 16:19:38] [debug] [SeggerBackend] - ---just_read_access_port_register
[2025-May-27 16:19:38] [debug] [SeggerBackend] - ---just_is_debug_region_powered
[2025-May-27 16:19:38] [debug] [SeggerBackend] - ---just_read_debug_port_register
[2025-May-27 16:19:38] [debug] [SeggerBackend] - ---just_select_debug_port_register
[2025-May-27 16:19:38] [debug] [SeggerBackend] - Select AP 255, DP Bank 0, AP Bank 255
[2025-May-27 16:19:38] [trace] [  JLink] - JLINK_CORESIGHT_WriteAPDPReg(DP reg 0x02, 0x00000000)  
[2025-May-27 16:19:38] [trace] [  JLink] - - 1.510ms returns 0  
[2025-May-27 16:19:38] [trace] [  JLink] - JLINK_HasError()  
[2025-May-27 16:19:38] [trace] [  JLink] - JLINK_CORESIGHT_ReadAPDPReg(DP reg 0x01)  
[2025-May-27 16:19:38] [trace] [  JLink] - Value=0xF0000040
[2025-May-27 16:19:38] [trace] [  JLink] - - 1.499ms returns 0  
[2025-May-27 16:19:38] [trace] [  JLink] - JLINK_HasError()  
[2025-May-27 16:19:38] [debug] [SeggerBackend] - ---just_select_access_port_register
[2025-May-27 16:19:38] [debug] [SeggerBackend] - Select AP 2, DP Bank 0, AP Bank 3
[2025-May-27 16:19:38] [trace] [  JLink] - JLINK_CORESIGHT_WriteAPDPReg(DP reg 0x02, 0x02000030)  
[2025-May-27 16:19:38] [trace] [  JLink] - - 0.678ms returns 0  
[2025-May-27 16:19:38] [trace] [  JLink] - JLINK_HasError()  
[2025-May-27 16:19:38] [trace] [  JLink] - JLINK_CORESIGHT_ReadAPDPReg(AP reg 0x00)  
[2025-May-27 16:19:38] [trace] [  JLink] - Value=0x00000007
[2025-May-27 16:19:38] [trace] [  JLink] - - 0.501ms returns 0  
[2025-May-27 16:19:38] [trace] [  JLink] - JLINK_HasError()  
[2025-May-27 16:19:38] [debug] [SeggerBackend] - read_access_port_register
[2025-May-27 16:19:38] [debug] [SeggerBackend] - ---just_read_access_port_register
[2025-May-27 16:19:38] [debug] [SeggerBackend] - ---just_select_access_port_register
[2025-May-27 16:19:38] [trace] [  JLink] - JLINK_CORESIGHT_ReadAPDPReg(AP reg 0x01)  
[2025-May-27 16:19:38] [trace] [  JLink] - Value=0x00000005
[2025-May-27 16:19:38] [trace] [  JLink] - - 0.429ms returns 0  
[2025-May-27 16:19:38] [trace] [  JLink] - JLINK_HasError()  
[2025-May-27 16:19:38] [debug] [  nRF53] - Just_decode_device_version
[2025-May-27 16:19:38] [debug] [  nRF53] - Device identified as NRF5340_xxAA_REV1
[2025-May-27 16:19:38] [trace] [  JLink] - - 0.003ms  
[2025-May-27 16:19:38] [trace] [ Worker] - Command read_device_info executed for 4 milliseconds with result 0
[2025-May-27 16:19:38] [debug] [  nRF53] - read_memory_descriptors
[2025-May-27 16:19:38] [debug] [SeggerBackend] - is_connected_to_emu
[2025-May-27 16:19:38] [trace] [  JLink] - JLINK_IsOpen()  
[2025-May-27 16:19:38] [trace] [  JLink] - - 0.002ms returns 0x01  
[2025-May-27 16:19:38] [trace] [  JLink] - JLINK_HasError()  
[2025-May-27 16:19:38] [trace] [  JLink] - JLINK_Lock()  
[2025-May-27 16:19:38] [debug] [  nRF53] - Just_read_memory_descriptors
[2025-May-27 16:19:38] [debug] [  nRF53] - Just_readback_status
[2025-May-27 16:19:38] [debug] [SeggerBackend] - read_access_port_register
[2025-May-27 16:19:38] [debug] [SeggerBackend] - ---just_read_access_port_register
[2025-May-27 16:19:38] [debug] [SeggerBackend] - ---just_is_debug_region_powered
[2025-May-27 16:19:38] [debug] [SeggerBackend] - ---just_read_debug_port_register
[2025-May-27 16:19:38] [debug] [SeggerBackend] - ---just_select_debug_port_register
[2025-May-27 16:19:38] [debug] [SeggerBackend] - Select AP 255, DP Bank 0, AP Bank 255
